(VT("/vin") - 0.6) X,(VT("/vin") - 0.6) Y,((VT("/o1") + VT("/o2") + VT("/o3") + VT("/o4") + VT("/o5") + VT("/o6") + VT("/o7") + VT("/o8") + VT("/o9") + VT("/o10") + VT("/o11") + VT("/o12") + VT("/o13") + VT("/o14") + VT("/o15")) / (1.8 * 15)) X,((VT("/o1") + VT("/o2") + VT("/o3") + VT("/o4") + VT("/o5") + VT("/o6") + VT("/o7") + VT("/o8") + VT("/o9") + VT("/o10") + VT("/o11") + VT("/o12") + VT("/o13") + VT("/o14") + VT("/o15")) / (1.8 * 15)) Y,/vin X,/vin Y
0,-0.2,0,0.4837584966376469,0,0.4
2.5e-12,-0.1999986,2.5e-12,0.4838333378925946,2.5e-12,0.4000014
3.89003081252967e-12,-0.1999978215827449,3.89003081252967e-12,0.4838635653558271,3.89003081252967e-12,0.400002178417255
6.670092437589012e-12,-0.1999962647482349,6.670092437589012e-12,0.4839088192281263,6.670092437589012e-12,0.4000037352517651
8.335046218794505e-12,-0.1999953323741174,8.335046218794505e-12,0.4839181314958924,8.335046218794505e-12,0.4000046676258825
9.999999999999999e-12,-0.1999944,9.999999999999999e-12,0.4838809688547347,9.999999999999999e-12,0.4000056
1.036969363428665e-11,-0.1999941929715647,1.036969363428665e-11,0.4838679628533964,1.036969363428665e-11,0.4000058070284352
1.094823736692207e-11,-0.1999938689870745,1.094823736692207e-11,0.4838486529687923,1.094823736692207e-11,0.4000061310129255
1.146347583734903e-11,-0.1999935804535311,1.146347583734903e-11,0.4838331458505836,1.146347583734903e-11,0.4000064195464689
1.249395277820293e-11,-0.1999930033864442,1.249395277820293e-11,0.4838063192395747,1.249395277820293e-11,0.4000069966135558
1.455490665991074e-11,-0.1999918492522704,1.455490665991074e-11,0.4837663439693631,1.455490665991074e-11,0.4000081507477296
1.801355181329383e-11,-0.1999899124109845,1.801355181329383e-11,0.4837280659792648,1.801355181329383e-11,0.4000100875890155
2.08711268292368e-11,-0.1999883121689756,2.08711268292368e-11,0.4837143135285138,2.08711268292368e-11,0.4000116878310244
2.484469385882497e-11,-0.199986086971439,2.484469385882497e-11,0.4837089097303827,2.484469385882497e-11,0.400013913028561
2.951280108463986e-11,-0.1999834728313926,2.951280108463986e-11,0.4837129478144182,2.951280108463986e-11,0.4000165271686074
3.435546528202172e-11,-0.199980760939442,3.435546528202172e-11,0.4837218631106828,3.435546528202172e-11,0.400019239060558
3.914302578242158e-11,-0.1999780799055618,3.914302578242158e-11,0.4837308763666251,3.914302578242158e-11,0.4000219200944382
4.390528545449001e-11,-0.1999754130401454,4.390528545449001e-11,0.4837308226999752,4.390528545449001e-11,0.4000245869598545
4.815803805808235e-11,-0.1999730314986874,4.815803805808235e-11,0.4837179778710564,4.815803805808235e-11,0.4000269685013125
5.309717008007479e-11,-0.1999702655847551,5.309717008007479e-11,0.4836897894278187,5.309717008007479e-11,0.4000297344152449
5.859957484496619e-11,-0.1999671842380868,5.859957484496619e-11,0.4836492319367097,5.859957484496619e-11,0.4000328157619132
6.519823613184983e-11,-0.1999634889877661,6.519823613184983e-11,0.4835949962745608,6.519823613184983e-11,0.4000365110122339
7.105295500577629e-11,-0.1999602103451967,7.105295500577629e-11,0.4835424074360972,7.105295500577629e-11,0.4000397896548032
7.781871553600777e-11,-0.1999564215192998,7.781871553600777e-11,0.4834719610334925,7.781871553600777e-11,0.4000435784807002
8.564767458801698e-11,-0.1999520373022307,8.564767458801698e-11,0.483371192781258,8.564767458801698e-11,0.4000479626977693
9.548147114274594e-11,-0.19994653037616,9.548147114274594e-11,0.4832388931315234,9.548147114274594e-11,0.40005346962384
1.05120909372284e-10,-0.1999411322907515,1.05120909372284e-10,0.4831461130156182,1.05120909372284e-10,0.4000588677092485
1.154498319799665e-10,-0.1999353480940912,1.154498319799665e-10,0.4831509055327271,1.154498319799665e-10,0.4000646519059088
1.271927320798844e-10,-0.1999287720700352,1.271927320798844e-10,0.483484989361763,1.271927320798844e-10,0.4000712279299647
1.397121960134403e-10,-0.1999217611702324,1.397121960134403e-10,0.4848759991630157,1.397121960134403e-10,0.4000782388297676
1.497081941907379e-10,-0.1999161634112531,1.497081941907379e-10,0.4871346109728442,1.497081941907379e-10,0.4000838365887469
1.598262205751774e-10,-0.1999104973164779,1.598262205751774e-10,0.4845373408906252,1.598262205751774e-10,0.4000895026835221
1.678493524137088e-10,-0.1999060043626483,1.678493524137088e-10,0.4683757427869362,1.678493524137088e-10,0.4000939956373517
1.745278025056901e-10,-0.1999022644305968,1.745278025056901e-10,0.4373131990371987,1.745278025056901e-10,0.4000977355694032
1.809319686462673e-10,-0.1998986780975581,1.809319686462673e-10,0.3915018903151015,1.809319686462673e-10,0.4001013219024419
1.846592942434834e-10,-0.1998965907952236,1.846592942434834e-10,0.3624186824185639,1.846592942434834e-10,0.4001034092047764
1.884675862477489e-10,-0.1998944581517012,1.884675862477489e-10,0.3351804383221382,1.884675862477489e-10,0.4001055418482988
1.91906547794405e-10,-0.1998925323332351,1.91906547794405e-10,0.313712846280329,1.91906547794405e-10,0.4001074676667649
1.951995821224902e-10,-0.1998906882340113,1.951995821224902e-10,0.2961146276832827,1.951995821224902e-10,0.4001093117659886
1.987587113732023e-10,-0.199888695121631,1.987587113732023e-10,0.2799068576040113,1.987587113732023e-10,0.400111304878369
2.022680952424383e-10,-0.1998867298666642,2.022680952424383e-10,0.2661353035459326,2.022680952424383e-10,0.4001132701333358
2.059455095146548e-10,-0.1998846705146717,2.059455095146548e-10,0.2537097550553219,2.059455095146548e-10,0.4001153294853282
2.094183032469121e-10,-0.1998827257501817,2.094183032469121e-10,0.2429891651953376,2.094183032469121e-10,0.4001172742498183
2.12736242169339e-10,-0.1998808677043851,2.12736242169339e-10,0.2336793940256477,2.12736242169339e-10,0.4001191322956149
2.163060919211391e-10,-0.1998788685885241,2.163060919211391e-10,0.2249297790272603,2.163060919211391e-10,0.4001211314114759
2.198539381759533e-10,-0.1998768817946214,2.198539381759533e-10,0.2168645061760667,2.198539381759533e-10,0.4001231182053785
2.252160909561702e-10,-0.1998738789890645,2.252160909561702e-10,0.2048326240801221,2.252160909561702e-10,0.4001261210109355
2.287679232515095e-10,-0.1998718899629791,2.287679232515095e-10,0.1977291159680364,2.287679232515095e-10,0.4001281100370209
2.323788174261254e-10,-0.1998698678622413,2.323788174261254e-10,0.191310516666639,2.323788174261254e-10,0.4001301321377587
2.367582395528824e-10,-0.1998674153858503,2.367582395528824e-10,0.1840226067269317,2.367582395528824e-10,0.4001325846141496
2.42460028907293e-10,-0.1998642223838119,2.42460028907293e-10,0.1742713476271751,2.42460028907293e-10,0.4001357776161881
2.478873870290436e-10,-0.1998611830632637,2.478873870290436e-10,0.1656125475559021,2.478873870290436e-10,0.4001388169367363
2.520734721377936e-10,-0.1998588388556028,2.520734721377936e-10,0.1601468292132692,2.520734721377936e-10,0.4001411611443972
2.562304791833883e-10,-0.1998565109316572,2.562304791833883e-10,0.1552957877480955,2.562304791833883e-10,0.4001434890683427
2.623468348748451e-10,-0.19985308577247,2.623468348748451e-10,0.1479077855509991,2.623468348748451e-10,0.40014691422753
2.677446920691426e-10,-0.1998500629724412,2.677446920691426e-10,0.1403638443762574,2.677446920691426e-10,0.4001499370275587
2.687446920691426e-10,-0.1998495029724413,2.687446920691426e-10,0.1388873985653089,2.687446920691426e-10,0.4001504970275587
2.707446920691426e-10,-0.1998483829724412,2.707446920691426e-10,0.136072305564139,2.707446920691426e-10,0.4001516170275587
2.740481620197733e-10,-0.1998465330292689,2.740481620197733e-10,0.1321596910018403,2.740481620197733e-10,0.4001534669707311
2.750481620197733e-10,-0.1998459730292689,2.750481620197733e-10,0.1311639810527436,2.750481620197733e-10,0.4001540269707311
2.770481620197733e-10,-0.1998448530292689,2.770481620197733e-10,0.12948975522355,2.770481620197733e-10,0.4001551469707311
2.810481620197733e-10,-0.1998426130292689,2.810481620197733e-10,0.1266286791288899,2.810481620197733e-10,0.4001573869707311
2.843099999900672e-10,-0.1998407864000055,2.843099999900672e-10,0.124740432202519,2.843099999900672e-10,0.4001592135999945
2.907338654195879e-10,-0.199837189035365,2.907338654195879e-10,0.1209255954061759,2.907338654195879e-10,0.400162810964635
2.961250043589339e-10,-0.1998341699975589,2.961250043589339e-10,0.1170425523778981,2.961250043589339e-10,0.400165830002441
3.03556012359001e-10,-0.1998300086330789,3.03556012359001e-10,0.1109278637398441,3.03556012359001e-10,0.4001699913669211
3.082862767308409e-10,-0.1998273596850307,3.082862767308409e-10,0.1079574260898896,3.082862767308409e-10,0.4001726403149693
3.132943728024778e-10,-0.1998245551512305,3.132943728024778e-10,0.106609985126245,3.132943728024778e-10,0.4001754448487694
3.185329795339474e-10,-0.1998216215314609,3.185329795339474e-10,0.1068244745980052,3.185329795339474e-10,0.400178378468539
3.255665696602642e-10,-0.1998176827209902,3.255665696602642e-10,0.1087867256030087,3.255665696602642e-10,0.4001823172790098
3.319165024980429e-10,-0.1998141267586011,3.319165024980429e-10,0.1116245136964923,3.319165024980429e-10,0.4001858732413989
3.39425066001138e-10,-0.1998099219630393,3.39425066001138e-10,0.11540815183017,3.39425066001138e-10,0.4001900780369607
3.477432491934524e-10,-0.1998052637804516,3.477432491934524e-10,0.1188627730268299,3.477432491934524e-10,0.4001947362195484
3.553604739170776e-10,-0.1998009981346064,3.553604739170776e-10,0.1206867918437117,3.553604739170776e-10,0.4001990018653936
3.629635167263167e-10,-0.1997967404306332,3.629635167263167e-10,0.1224496752645118,3.629635167263167e-10,0.4002032595693668
3.704463200396883e-10,-0.1997925500607777,3.704463200396883e-10,0.124625403045311,3.704463200396883e-10,0.4002074499392222
3.82596621031851e-10,-0.1997857458922221,3.82596621031851e-10,0.1279960161120698,3.82596621031851e-10,0.4002142541077778
3.91664638412787e-10,-0.1997806678024888,3.91664638412787e-10,0.1298901899555949,3.91664638412787e-10,0.4002193321975112
4.025760747474173e-10,-0.1997745573981414,4.025760747474173e-10,0.1314120570411775,4.025760747474173e-10,0.4002254426018585
4.131619728885507e-10,-0.1997686292951824,4.131619728885507e-10,0.1322939223462849,4.131619728885507e-10,0.4002313707048176
4.252638530466082e-10,-0.1997618522422939,4.252638530466082e-10,0.1328176513795394,4.252638530466082e-10,0.4002381477577061
4.387880472658397e-10,-0.1997542786935311,4.387880472658397e-10,0.1323883137513673,4.387880472658397e-10,0.4002457213064689
4.531182106796424e-10,-0.1997462538020194,4.531182106796424e-10,0.1298280718294877,4.531182106796424e-10,0.4002537461979806
4.671799768820096e-10,-0.199738379212946,4.671799768820096e-10,0.1246424485021065,4.671799768820096e-10,0.400261620787054
4.840466833132884e-10,-0.1997289338573445,4.840466833132884e-10,0.114567417252066,4.840466833132884e-10,0.4002710661426555
4.972903814502545e-10,-0.1997215173863878,4.972903814502545e-10,0.1037642371256443,4.972903814502545e-10,0.4002784826136122
5.129140424443086e-10,-0.1997127681362311,5.129140424443086e-10,0.0876701865734556,5.129140424443086e-10,0.4002872318637689
5.139140424443086e-10,-0.1997122081362311,5.139140424443086e-10,0.08655255289684512,5.139140424443086e-10,0.4002877918637688
5.159140424443086e-10,-0.1997110881362311,5.159140424443086e-10,0.08437290761776471,5.159140424443086e-10,0.4002889118637689
5.199140424443086e-10,-0.1997088481362311,5.199140424443086e-10,0.08041047638078577,5.199140424443086e-10,0.4002911518637688
5.235636986785112e-10,-0.19970680432874,5.235636986785112e-10,0.07746483381739198,5.235636986785112e-10,0.40029319567126
5.296196797150652e-10,-0.1997034129793595,5.296196797150652e-10,0.07384124428336422,5.296196797150652e-10,0.4002965870206405
5.369928098981575e-10,-0.199699284026457,5.369928098981575e-10,0.07086337624037993,5.369928098981575e-10,0.400300715973543
5.441656935089386e-10,-0.1996952672116349,5.441656935089386e-10,0.06905937292196962,5.441656935089386e-10,0.400304732788365
5.527947735853192e-10,-0.1996904349267922,5.527947735853192e-10,0.067811427269459,5.527947735853192e-10,0.4003095650732078
5.609918126678056e-10,-0.199685844584906,5.609918126678056e-10,0.06736570797101207,5.609918126678056e-10,0.400314155415094
5.694371316481605e-10,-0.199681115206277,5.694371316481605e-10,0.06722463899286926,5.694371316481605e-10,0.400318884793723
5.794681398772357e-10,-0.1996754978416687,5.794681398772357e-10,0.06709470028230705,5.794681398772357e-10,0.4003245021583313
5.911960342870739e-10,-0.1996689302207992,5.911960342870739e-10,0.06698613204707365,5.911960342870739e-10,0.4003310697792008
6.011385239474715e-10,-0.1996633624265894,6.011385239474715e-10,0.06683452853523947,6.011385239474715e-10,0.4003366375734106
6.133856441420951e-10,-0.1996565040392804,6.133856441420951e-10,0.06628529898774961,6.133856441420951e-10,0.4003434959607196
6.271636453401201e-10,-0.1996487883586095,6.271636453401201e-10,0.06464587221522002,6.271636453401201e-10,0.4003512116413905
6.433381968892302e-10,-0.199639730609742,6.433381968892302e-10,0.06079254431619301,6.433381968892302e-10,0.400360269390258
6.620624103557132e-10,-0.1996292450502007,6.620624103557132e-10,0.05344167759210678,6.620624103557132e-10,0.4003707549497992
6.890919976554764e-10,-0.1996141084813129,6.890919976554764e-10,0.0364213465899217,6.890919976554764e-10,0.4003858915186871
7.007219748764343e-10,-0.1996075956940692,7.007219748764343e-10,0.02647487135607773,7.007219748764343e-10,0.4003924043059308
7.017219748764343e-10,-0.1996070356940692,7.017219748764343e-10,0.02553506323570554,7.017219748764343e-10,0.4003929643059308
7.037219748764342e-10,-0.1996059156940692,7.037219748764342e-10,0.02359549299783238,7.037219748764342e-10,0.4003940843059308
7.077219748764342e-10,-0.1996036756940692,7.077219748764342e-10,0.01966149404478624,7.077219748764342e-10,0.4003963243059308
7.125527339288452e-10,-0.1996009704689998,7.125527339288452e-10,0.01501635616192837,7.125527339288452e-10,0.4003990295310002
7.198547052027146e-10,-0.1995968813650864,7.198547052027146e-10,0.009456642943860746,7.198547052027146e-10,0.4004031186349136
7.256773098355927e-10,-0.199593620706492,7.256773098355927e-10,0.006325737359924229,7.256773098355927e-10,0.400406379293508
7.339643695812956e-10,-0.1995889799530344,7.339643695812956e-10,0.003298571426743003,7.339643695812956e-10,0.4004110200469655
7.415495273118163e-10,-0.1995847322647054,7.415495273118163e-10,0.001688423512128955,7.415495273118163e-10,0.4004152677352946
7.50470124220934e-10,-0.1995797367304362,7.50470124220934e-10,0.0007516138040159701,7.50470124220934e-10,0.4004202632695638
7.582563846283113e-10,-0.1995753764246081,7.582563846283113e-10,0.0005221009549623662,7.582563846283113e-10,0.4004246235753919
7.678989926300002e-10,-0.1995699765641272,7.678989926300002e-10,0.0003453752487966005,7.678989926300002e-10,0.4004300234358728
7.78418702145384e-10,-0.1995640855267986,7.78418702145384e-10,0.0002214139971908688,7.78418702145384e-10,0.4004359144732014
7.8783743015339e-10,-0.199558811039114,7.8783743015339e-10,0.0001410616903408633,7.8783743015339e-10,0.4004411889608859
7.989237705159167e-10,-0.199552602688511,7.989237705159167e-10,8.402745126381104e-05,7.989237705159167e-10,0.4004473973114889
8.115286454964947e-10,-0.1995455439585219,8.115286454964947e-10,4.676545661173411e-05,8.115286454964947e-10,0.4004544560414781
8.269501829672453e-10,-0.1995369078975383,8.269501829672453e-10,2.356388091894596e-05,8.269501829672453e-10,0.4004630921024617
8.455051406797471e-10,-0.1995265171212193,8.455051406797471e-10,1.096171782893446e-05,8.455051406797471e-10,0.4004734828787807
8.691496458405514e-10,-0.1995132761983293,8.691496458405514e-10,4.637650459987242e-06,8.691496458405514e-10,0.4004867238016707
9.005059385612403e-10,-0.1994957166744057,9.005059385612403e-10,1.73327078396558e-06,9.005059385612403e-10,0.4005042833255943
9.458687911860353e-10,-0.1994703134769358,9.458687911860353e-10,4.814572139102665e-07,9.458687911860353e-10,0.4005296865230642
1.018936470099841e-09,-0.1994293955767441,1.018936470099841e-09,1.292729357833573e-07,1.018936470099841e-09,0.4005706044232559
1.116503906905927e-09,-0.1993747578121327,1.116503906905927e-09,3.206791200917248e-07,1.116503906905927e-09,0.4006252421878673
1.207911984959377e-09,-0.1993235692884227,1.207911984959377e-09,2.681527710206026e-07,1.207911984959377e-09,0.4006764307115773
1.313739940675642e-09,-0.1992643056332216,1.313739940675642e-09,-2.789226978064835e-09,1.313739940675642e-09,0.4007356943667784
1.339931580563166e-09,-0.1992496383148846,1.339931580563166e-09,2.201490040080137e-08,1.339931580563166e-09,0.4007503616851154
1.392314860338213e-09,-0.1992203036782105,1.392314860338213e-09,1.085198951060028e-08,1.392314860338213e-09,0.4007796963217894
1.497081419888309e-09,-0.1991616344048625,1.497081419888309e-09,-1.191053990350056e-08,1.497081419888309e-09,0.4008383655951375
1.665038979962997e-09,-0.1990675781712207,1.665038979962997e-09,-3.506009340398682e-09,1.665038979962997e-09,0.4009324218287793
1.935574106846694e-09,-0.1989160785001658,1.935574106846694e-09,-1.44487859886561e-08,1.935574106846694e-09,0.4010839214998342
2.363190792181396e-09,-0.1986766131563784,2.363190792181396e-09,-3.203579207245444e-09,2.363190792181396e-09,0.4013233868436216
3.218424162850801e-09,-0.1981976824688035,3.218424162850801e-09,-1.455568767447143e-08,3.218424162850801e-09,0.4018023175311965
4.92889090418961e-09,-0.1972398210936538,4.92889090418961e-09,-3.162379894825978e-09,4.92889090418961e-09,0.4027601789063462
7.464445452094804e-09,-0.1958199105468268,7.464445452094804e-09,-1.457814888561512e-08,7.464445452094804e-09,0.4041800894531731
9.999999999999999e-09,-0.1944,9.999999999999999e-09,-3.14770774545794e-09,9.999999999999999e-09,0.4056
1.0005e-08,-0.1943971999999999,1.0005e-08,-2.712600754642782e-05,1.0005e-08,0.4056028
1.00075e-08,-0.1943958,1.00075e-08,-8.547360952770519e-06,1.00075e-08,0.4056042
1.001e-08,-0.1943944,1.001e-08,7.97007112780391e-05,1.001e-08,0.4056056
1.001046336106722e-08,-0.1943941405178023,1.001046336106722e-08,0.0001125739055537744,1.001046336106722e-08,0.4056058594821977
1.001121015880531e-08,-0.194393722311069,1.001121015880531e-08,0.0001638264125365515,1.001121015880531e-08,0.405606277688931
1.001186657687206e-08,-0.1943933547169516,1.001186657687206e-08,0.0001974854373185329,1.001186657687206e-08,0.4056066452830484
1.001317941300556e-08,-0.1943926195287168,1.001317941300556e-08,0.0002387487497426804,1.001317941300556e-08,0.4056073804712831
1.001580508527256e-08,-0.1943911491522473,1.001580508527256e-08,0.0002601816302638519,1.001580508527256e-08,0.4056088508477527
1.002105642980656e-08,-0.1943882083993083,1.002105642980656e-08,0.0002139388149168819,1.002105642980656e-08,0.4056117916006917
1.00282949869755e-08,-0.1943841548072937,1.00282949869755e-08,0.0001394484637051056,1.00282949869755e-08,0.4056158451927063
1.003791646401275e-08,-0.1943787667801528,1.003791646401275e-08,7.742047647275196e-05,1.003791646401275e-08,0.4056212332198472
1.005066424231094e-08,-0.1943716280243059,1.005066424231094e-08,5.433516392287118e-05,1.005066424231094e-08,0.4056283719756941
1.006304755059601e-08,-0.1943646933716662,1.006304755059601e-08,-5.167037109904858e-07,1.006304755059601e-08,0.4056353066283338
1.007764862757912e-08,-0.1943565167685556,1.007764862757912e-08,-0.000197046821135125,1.007764862757912e-08,0.4056434832314443
1.009366750988459e-08,-0.1943475461944646,1.009366750988459e-08,-0.0005486430965153317,1.009366750988459e-08,0.4056524538055354
1.011044278836207e-08,-0.1943381520385172,1.011044278836207e-08,-0.001098232825332623,1.011044278836207e-08,0.4056618479614828
1.012695682400411e-08,-0.1943289041785576,1.012695682400411e-08,-0.002402237362304235,1.012695682400411e-08,0.4056710958214423
1.014023347237043e-08,-0.1943214692554725,1.014023347237043e-08,-0.003809843633822076,1.014023347237043e-08,0.4056785307445275
1.015338242103111e-08,-0.1943141058442225,1.015338242103111e-08,-0.00537555276726437,1.015338242103111e-08,0.4056858941557774
